date Sat May 27 08:43:18.032 pm 2017
base hex  timestamps absolute
internal events logged
// version 9.0.0
Begin Triggerblock Sat May 27 08:43:18.032 pm 2017
   0.000000 Start of measurement
   0.050250 1  5               Tx   d 8 00 00 00 00 00 00 00 00  Length = 244000 BitCount = 125 ID = 5
   0.100254 1  0               Tx   d 8 00 00 00 00 00 00 00 00  Length = 248000 BitCount = 127 ID = 0
   0.200254 1  0               Tx   d 8 00 00 00 00 00 00 00 00  Length = 248000 BitCount = 127 ID = 0
   0.200508 1  3               Tx   d 8 00 00 00 00 00 00 00 00  Length = 248000 BitCount = 127 ID = 3
   0.250250 1  5               Tx   d 8 00 00 00 00 00 00 00 00  Length = 244000 BitCount = 125 ID = 5
   0.300254 1  0               Tx   d 8 00 00 00 00 00 00 00 00  Length = 248000 BitCount = 127 ID = 0
   0.300508 1  2               Tx   d 8 00 00 00 00 00 00 00 00  Length = 248000 BitCount = 127 ID = 2
   0.400254 1  0               Tx   d 8 00 00 00 00 00 00 00 00  Length = 248000 BitCount = 127 ID = 0
   0.400508 1  3               Tx   d 8 00 00 00 00 00 00 00 00  Length = 248000 BitCount = 127 ID = 3
   0.450250 1  5               Tx   d 8 00 00 00 00 00 00 00 00  Length = 244000 BitCount = 125 ID = 5
   0.500254 1  0               Tx   d 8 00 00 00 00 00 00 00 00  Length = 248000 BitCount = 127 ID = 0
   0.500510 1  1               Tx   d 8 00 00 00 00 00 00 00 00  Length = 250000 BitCount = 128 ID = 1
   0.600254 1  0               Tx   d 8 00 00 00 00 00 00 00 00  Length = 248000 BitCount = 127 ID = 0
   0.600508 1  2               Tx   d 8 00 00 00 00 00 00 00 00  Length = 248000 BitCount = 127 ID = 2
   0.600762 1  3               Tx   d 8 00 00 00 00 00 00 00 00  Length = 248000 BitCount = 127 ID = 3
   0.650250 1  5               Tx   d 8 00 00 00 00 00 00 00 00  Length = 244000 BitCount = 125 ID = 5
   0.700254 1  0               Tx   d 8 00 00 00 00 00 00 00 00  Length = 248000 BitCount = 127 ID = 0
   0.770000    env_Acceleration_Ped := 5
   0.800254 1  0               Tx   d 8 00 00 00 00 00 00 00 00  Length = 248000 BitCount = 127 ID = 0
   0.800508 1  3               Tx   d 8 00 00 00 00 00 00 00 00  Length = 248000 BitCount = 127 ID = 3
   0.850250 1  5               Tx   d 8 00 00 00 00 00 00 00 00  Length = 244000 BitCount = 125 ID = 5
   0.900254 1  0               Tx   d 8 00 00 00 00 00 00 00 00  Length = 248000 BitCount = 127 ID = 0
   0.900508 1  2               Tx   d 8 00 00 00 00 00 00 00 00  Length = 248000 BitCount = 127 ID = 2
   1.000000 1  Statistic: D 22 R 0 XD 0 XR 0 E 0 O 0 B 0.54%
   1.000254 1  0               Tx   d 8 00 00 00 00 00 00 00 00  Length = 248000 BitCount = 127 ID = 0
   1.000510 1  1               Tx   d 8 00 00 00 00 00 00 00 00  Length = 250000 BitCount = 128 ID = 1
   1.000764 1  3               Tx   d 8 00 00 00 00 00 00 00 00  Length = 248000 BitCount = 127 ID = 3
   1.050248 1  5               Tx   d 8 00 00 05 00 00 00 00 00  Length = 242000 BitCount = 124 ID = 5
   1.100254 1  0               Tx   d 8 00 00 00 00 00 00 00 00  Length = 248000 BitCount = 127 ID = 0
   1.200254 1  0               Tx   d 8 00 00 00 00 00 00 00 00  Length = 248000 BitCount = 127 ID = 0
   1.200508 1  2               Tx   d 8 00 00 00 00 00 00 00 00  Length = 248000 BitCount = 127 ID = 2
   1.200762 1  3               Tx   d 8 00 00 00 00 00 00 00 00  Length = 248000 BitCount = 127 ID = 3
   1.250248 1  5               Tx   d 8 14 00 05 00 00 00 00 00  Length = 242000 BitCount = 124 ID = 5
   1.300254 1  0               Tx   d 8 00 00 00 00 00 00 00 00  Length = 248000 BitCount = 127 ID = 0
   1.400254 1  0               Tx   d 8 00 00 00 00 00 00 00 00  Length = 248000 BitCount = 127 ID = 0
   1.400508 1  3               Tx   d 8 00 00 00 00 00 00 00 00  Length = 248000 BitCount = 127 ID = 3
   1.450248 1  5               Tx   d 8 0F 00 05 00 00 00 00 00  Length = 242000 BitCount = 124 ID = 5
   1.500254 1  0               Tx   d 8 00 00 00 00 00 00 00 00  Length = 248000 BitCount = 127 ID = 0
   1.500504 1  1               Tx   d 8 00 19 00 00 00 00 00 00  Length = 244000 BitCount = 125 ID = 1
   1.500758 1  2               Tx   d 8 00 00 00 00 00 00 00 00  Length = 248000 BitCount = 127 ID = 2
   1.600254 1  0               Tx   d 8 00 00 00 00 00 00 00 00  Length = 248000 BitCount = 127 ID = 0
   1.600508 1  3               Tx   d 8 00 00 00 00 00 00 00 00  Length = 248000 BitCount = 127 ID = 3
   1.650248 1  5               Tx   d 8 0A 00 05 00 00 00 00 00  Length = 242000 BitCount = 124 ID = 5
   1.700254 1  0               Tx   d 8 00 00 00 00 00 00 00 00  Length = 248000 BitCount = 127 ID = 0
   1.800254 1  0               Tx   d 8 00 00 00 00 00 00 00 00  Length = 248000 BitCount = 127 ID = 0
   1.800508 1  2               Tx   d 8 00 00 00 00 00 00 00 00  Length = 248000 BitCount = 127 ID = 2
   1.800762 1  3               Tx   d 8 00 00 00 00 00 00 00 00  Length = 248000 BitCount = 127 ID = 3
   1.850246 1  5               Tx   d 8 05 00 05 00 00 00 00 00  Length = 240000 BitCount = 123 ID = 5
   1.900254 1  0               Tx   d 8 00 00 00 00 00 00 00 00  Length = 248000 BitCount = 127 ID = 0
   2.000000 1  Statistic: D 25 R 0 XD 0 XR 0 E 0 O 0 B 0.62%
   2.000254 1  0               Tx   d 8 00 00 00 00 00 00 00 00  Length = 248000 BitCount = 127 ID = 0
   2.000504 1  1               Tx   d 8 00 46 00 00 00 00 00 00  Length = 244000 BitCount = 125 ID = 1
   2.000758 1  3               Tx   d 8 00 00 00 00 00 00 00 00  Length = 248000 BitCount = 127 ID = 3
   2.050248 1  5               Tx   d 8 00 00 05 00 00 00 00 00  Length = 242000 BitCount = 124 ID = 5
   2.100254 1  0               Tx   d 8 00 00 00 00 00 00 00 00  Length = 248000 BitCount = 127 ID = 0
   2.100508 1  2               Tx   d 8 00 00 00 00 00 00 00 00  Length = 248000 BitCount = 127 ID = 2
   2.200254 1  0               Tx   d 8 00 00 00 00 00 00 00 00  Length = 248000 BitCount = 127 ID = 0
   2.200508 1  3               Tx   d 8 00 00 00 00 00 00 00 00  Length = 248000 BitCount = 127 ID = 3
   2.250248 1  5               Tx   d 8 14 00 05 00 00 00 00 00  Length = 242000 BitCount = 124 ID = 5
   2.300254 1  0               Tx   d 8 00 00 00 00 00 00 00 00  Length = 248000 BitCount = 127 ID = 0
   2.400254 1  0               Tx   d 8 00 00 00 00 00 00 00 00  Length = 248000 BitCount = 127 ID = 0
   2.400508 1  2               Tx   d 8 00 00 00 00 00 00 00 00  Length = 248000 BitCount = 127 ID = 2
   2.400762 1  3               Tx   d 8 00 00 00 00 00 00 00 00  Length = 248000 BitCount = 127 ID = 3
   2.450248 1  5               Tx   d 8 0F 00 05 00 00 00 00 00  Length = 242000 BitCount = 124 ID = 5
   2.500254 1  0               Tx   d 8 00 00 00 00 00 00 00 00  Length = 248000 BitCount = 127 ID = 0
   2.500504 1  1               Tx   d 8 00 64 00 00 00 00 00 00  Length = 244000 BitCount = 125 ID = 1
   2.600254 1  0               Tx   d 8 00 00 00 00 00 00 00 00  Length = 248000 BitCount = 127 ID = 0
   2.600508 1  3               Tx   d 8 00 00 00 00 00 00 00 00  Length = 248000 BitCount = 127 ID = 3
   2.650248 1  5               Tx   d 8 0A 00 05 00 00 00 00 00  Length = 242000 BitCount = 124 ID = 5
   2.700254 1  0               Tx   d 8 00 00 00 00 00 00 00 00  Length = 248000 BitCount = 127 ID = 0
   2.700508 1  2               Tx   d 8 00 00 00 00 00 00 00 00  Length = 248000 BitCount = 127 ID = 2
   2.800254 1  0               Tx   d 8 00 00 00 00 00 00 00 00  Length = 248000 BitCount = 127 ID = 0
   2.800508 1  3               Tx   d 8 00 00 00 00 00 00 00 00  Length = 248000 BitCount = 127 ID = 3
   2.850246 1  5               Tx   d 8 05 00 05 00 00 00 00 00  Length = 240000 BitCount = 123 ID = 5
   2.900254 1  0               Tx   d 8 00 00 00 00 00 00 00 00  Length = 248000 BitCount = 127 ID = 0
   3.000000 1  Statistic: D 25 R 0 XD 0 XR 0 E 0 O 0 B 0.62%
   3.000254 1  0               Tx   d 8 00 00 00 00 00 00 00 00  Length = 248000 BitCount = 127 ID = 0
   3.000504 1  1               Tx   d 8 00 91 00 00 00 00 00 00  Length = 244000 BitCount = 125 ID = 1
   3.000758 1  2               Tx   d 8 00 00 00 00 00 00 00 00  Length = 248000 BitCount = 127 ID = 2
   3.001012 1  3               Tx   d 8 00 00 00 00 00 00 00 00  Length = 248000 BitCount = 127 ID = 3
   3.050248 1  5               Tx   d 8 00 00 05 00 00 00 00 00  Length = 242000 BitCount = 124 ID = 5
   3.100254 1  0               Tx   d 8 00 00 00 00 00 00 00 00  Length = 248000 BitCount = 127 ID = 0
   3.200254 1  0               Tx   d 8 00 00 00 00 00 00 00 00  Length = 248000 BitCount = 127 ID = 0
   3.200508 1  3               Tx   d 8 00 00 00 00 00 00 00 00  Length = 248000 BitCount = 127 ID = 3
   3.250248 1  5               Tx   d 8 14 00 05 00 00 00 00 00  Length = 242000 BitCount = 124 ID = 5
   3.300254 1  0               Tx   d 8 00 00 00 00 00 00 00 00  Length = 248000 BitCount = 127 ID = 0
   3.300508 1  2               Tx   d 8 00 00 00 00 00 00 00 00  Length = 248000 BitCount = 127 ID = 2
   3.400254 1  0               Tx   d 8 00 00 00 00 00 00 00 00  Length = 248000 BitCount = 127 ID = 0
   3.400508 1  3               Tx   d 8 00 00 00 00 00 00 00 00  Length = 248000 BitCount = 127 ID = 3
   3.450248 1  5               Tx   d 8 0F 00 05 00 00 00 00 00  Length = 242000 BitCount = 124 ID = 5
   3.500254 1  0               Tx   d 8 00 00 00 00 00 00 00 00  Length = 248000 BitCount = 127 ID = 0
   3.500502 1  1               Tx   d 8 00 AF 00 00 00 00 00 00  Length = 242000 BitCount = 124 ID = 1
   3.600254 1  0               Tx   d 8 00 00 00 00 00 00 00 00  Length = 248000 BitCount = 127 ID = 0
   3.600508 1  2               Tx   d 8 00 00 00 00 00 00 00 00  Length = 248000 BitCount = 127 ID = 2
   3.600762 1  3               Tx   d 8 00 00 00 00 00 00 00 00  Length = 248000 BitCount = 127 ID = 3
   3.650248 1  5               Tx   d 8 0A 00 05 00 00 00 00 00  Length = 242000 BitCount = 124 ID = 5
   3.700254 1  0               Tx   d 8 00 00 00 00 00 00 00 00  Length = 248000 BitCount = 127 ID = 0
   3.800254 1  0               Tx   d 8 00 00 00 00 00 00 00 00  Length = 248000 BitCount = 127 ID = 0
   3.800508 1  3               Tx   d 8 00 00 00 00 00 00 00 00  Length = 248000 BitCount = 127 ID = 3
   3.850246 1  5               Tx   d 8 05 00 05 00 00 00 00 00  Length = 240000 BitCount = 123 ID = 5
   3.900254 1  0               Tx   d 8 00 00 00 00 00 00 00 00  Length = 248000 BitCount = 127 ID = 0
   3.900508 1  2               Tx   d 8 00 00 00 00 00 00 00 00  Length = 248000 BitCount = 127 ID = 2
   4.000000 1  Statistic: D 26 R 0 XD 0 XR 0 E 0 O 0 B 0.64%
   4.000254 1  0               Tx   d 8 00 00 00 00 00 00 00 00  Length = 248000 BitCount = 127 ID = 0
   4.000504 1  1               Tx   d 8 00 DC 00 00 00 00 00 00  Length = 244000 BitCount = 125 ID = 1
   4.000758 1  3               Tx   d 8 00 00 00 00 00 00 00 00  Length = 248000 BitCount = 127 ID = 3
   4.050248 1  5               Tx   d 8 00 00 05 00 00 00 00 00  Length = 242000 BitCount = 124 ID = 5
   4.100254 1  0               Tx   d 8 00 00 00 00 00 00 00 00  Length = 248000 BitCount = 127 ID = 0
   4.200254 1  0               Tx   d 8 00 00 00 00 00 00 00 00  Length = 248000 BitCount = 127 ID = 0
   4.200508 1  2               Tx   d 8 00 00 00 00 00 00 00 00  Length = 248000 BitCount = 127 ID = 2
   4.200762 1  3               Tx   d 8 00 00 00 00 00 00 00 00  Length = 248000 BitCount = 127 ID = 3
   4.250248 1  5               Tx   d 8 14 00 05 00 00 00 00 00  Length = 242000 BitCount = 124 ID = 5
   4.300254 1  0               Tx   d 8 00 00 00 00 00 00 00 00  Length = 248000 BitCount = 127 ID = 0
   4.400254 1  0               Tx   d 8 00 00 00 00 00 00 00 00  Length = 248000 BitCount = 127 ID = 0
   4.400508 1  3               Tx   d 8 00 00 00 00 00 00 00 00  Length = 248000 BitCount = 127 ID = 3
   4.450248 1  5               Tx   d 8 0F 00 05 00 00 00 00 00  Length = 242000 BitCount = 124 ID = 5
   4.500254 1  0               Tx   d 8 00 00 00 00 00 00 00 00  Length = 248000 BitCount = 127 ID = 0
   4.500504 1  1               Tx   d 8 00 FA 00 00 00 00 00 00  Length = 244000 BitCount = 125 ID = 1
   4.500758 1  2               Tx   d 8 00 00 00 00 00 00 00 00  Length = 248000 BitCount = 127 ID = 2
   4.600254 1  0               Tx   d 8 00 00 00 00 00 00 00 00  Length = 248000 BitCount = 127 ID = 0
   4.600508 1  3               Tx   d 8 00 00 00 00 00 00 00 00  Length = 248000 BitCount = 127 ID = 3
   4.650248 1  5               Tx   d 8 0A 00 05 00 00 00 00 00  Length = 242000 BitCount = 124 ID = 5
   4.700254 1  0               Tx   d 8 00 00 00 00 00 00 00 00  Length = 248000 BitCount = 127 ID = 0
   4.800254 1  0               Tx   d 8 00 00 00 00 00 00 00 00  Length = 248000 BitCount = 127 ID = 0
   4.800508 1  2               Tx   d 8 00 00 00 00 00 00 00 00  Length = 248000 BitCount = 127 ID = 2
   4.800762 1  3               Tx   d 8 00 00 00 00 00 00 00 00  Length = 248000 BitCount = 127 ID = 3
   4.850246 1  5               Tx   d 8 05 00 05 00 00 00 00 00  Length = 240000 BitCount = 123 ID = 5
   4.900254 1  0               Tx   d 8 00 00 00 00 00 00 00 00  Length = 248000 BitCount = 127 ID = 0
   5.000000 1  Statistic: D 25 R 0 XD 0 XR 0 E 0 O 0 B 0.62%
   5.000254 1  0               Tx   d 8 00 00 00 00 00 00 00 00  Length = 248000 BitCount = 127 ID = 0
   5.000502 1  1               Tx   d 8 00 27 01 00 00 00 00 00  Length = 242000 BitCount = 124 ID = 1
   5.000756 1  3               Tx   d 8 00 00 00 00 00 00 00 00  Length = 248000 BitCount = 127 ID = 3
   5.050248 1  5               Tx   d 8 00 00 05 00 00 00 00 00  Length = 242000 BitCount = 124 ID = 5
   5.100254 1  0               Tx   d 8 00 00 00 00 00 00 00 00  Length = 248000 BitCount = 127 ID = 0
   5.100508 1  2               Tx   d 8 00 00 00 00 00 00 00 00  Length = 248000 BitCount = 127 ID = 2
   5.200254 1  0               Tx   d 8 00 00 00 00 00 00 00 00  Length = 248000 BitCount = 127 ID = 0
   5.200508 1  3               Tx   d 8 00 00 00 00 00 00 00 00  Length = 248000 BitCount = 127 ID = 3
   5.250248 1  5               Tx   d 8 14 00 05 00 00 00 00 00  Length = 242000 BitCount = 124 ID = 5
   5.300254 1  0               Tx   d 8 00 00 00 00 00 00 00 00  Length = 248000 BitCount = 127 ID = 0
   5.400254 1  0               Tx   d 8 00 00 00 00 00 00 00 00  Length = 248000 BitCount = 127 ID = 0
   5.400508 1  2               Tx   d 8 00 00 00 00 00 00 00 00  Length = 248000 BitCount = 127 ID = 2
   5.400762 1  3               Tx   d 8 00 00 00 00 00 00 00 00  Length = 248000 BitCount = 127 ID = 3
   5.450248 1  5               Tx   d 8 0F 00 05 00 00 00 00 00  Length = 242000 BitCount = 124 ID = 5
   5.500254 1  0               Tx   d 8 00 00 00 00 00 00 00 00  Length = 248000 BitCount = 127 ID = 0
   5.500504 1  1               Tx   d 8 00 45 01 00 00 00 00 00  Length = 244000 BitCount = 125 ID = 1
   5.600254 1  0               Tx   d 8 00 00 00 00 00 00 00 00  Length = 248000 BitCount = 127 ID = 0
   5.600508 1  3               Tx   d 8 00 00 00 00 00 00 00 00  Length = 248000 BitCount = 127 ID = 3
   5.650248 1  5               Tx   d 8 0A 00 05 00 00 00 00 00  Length = 242000 BitCount = 124 ID = 5
   5.700254 1  0               Tx   d 8 00 00 00 00 00 00 00 00  Length = 248000 BitCount = 127 ID = 0
   5.700508 1  2               Tx   d 8 00 00 00 00 00 00 00 00  Length = 248000 BitCount = 127 ID = 2
   5.800254 1  0               Tx   d 8 00 00 00 00 00 00 00 00  Length = 248000 BitCount = 127 ID = 0
   5.800508 1  3               Tx   d 8 00 00 00 00 00 00 00 00  Length = 248000 BitCount = 127 ID = 3
   5.850246 1  5               Tx   d 8 05 00 05 00 00 00 00 00  Length = 240000 BitCount = 123 ID = 5
   5.900254 1  0               Tx   d 8 00 00 00 00 00 00 00 00  Length = 248000 BitCount = 127 ID = 0
   6.000000 1  Statistic: D 25 R 0 XD 0 XR 0 E 0 O 0 B 0.62%
   6.000254 1  0               Tx   d 8 00 00 00 00 00 00 00 00  Length = 248000 BitCount = 127 ID = 0
   6.000502 1  1               Tx   d 8 00 72 01 00 00 00 00 00  Length = 242000 BitCount = 124 ID = 1
   6.000756 1  2               Tx   d 8 00 00 00 00 00 00 00 00  Length = 248000 BitCount = 127 ID = 2
   6.001010 1  3               Tx   d 8 00 00 00 00 00 00 00 00  Length = 248000 BitCount = 127 ID = 3
   6.050248 1  5               Tx   d 8 00 00 05 00 00 00 00 00  Length = 242000 BitCount = 124 ID = 5
   6.100254 1  0               Tx   d 8 00 00 00 00 00 00 00 00  Length = 248000 BitCount = 127 ID = 0
   6.200254 1  0               Tx   d 8 00 00 00 00 00 00 00 00  Length = 248000 BitCount = 127 ID = 0
   6.200508 1  3               Tx   d 8 00 00 00 00 00 00 00 00  Length = 248000 BitCount = 127 ID = 3
   6.250248 1  5               Tx   d 8 14 00 05 00 00 00 00 00  Length = 242000 BitCount = 124 ID = 5
   6.300254 1  0               Tx   d 8 00 00 00 00 00 00 00 00  Length = 248000 BitCount = 127 ID = 0
   6.300508 1  2               Tx   d 8 00 00 00 00 00 00 00 00  Length = 248000 BitCount = 127 ID = 2
   6.400254 1  0               Tx   d 8 00 00 00 00 00 00 00 00  Length = 248000 BitCount = 127 ID = 0
   6.400508 1  3               Tx   d 8 00 00 00 00 00 00 00 00  Length = 248000 BitCount = 127 ID = 3
   6.450248 1  5               Tx   d 8 0F 00 05 00 00 00 00 00  Length = 242000 BitCount = 124 ID = 5
   6.500254 1  0               Tx   d 8 00 00 00 00 00 00 00 00  Length = 248000 BitCount = 127 ID = 0
   6.500508 1  1               Tx   d 8 00 90 01 00 00 00 00 00  Length = 248000 BitCount = 127 ID = 1
   6.600254 1  0               Tx   d 8 00 00 00 00 00 00 00 00  Length = 248000 BitCount = 127 ID = 0
   6.600508 1  2               Tx   d 8 00 00 00 00 00 00 00 00  Length = 248000 BitCount = 127 ID = 2
   6.600762 1  3               Tx   d 8 00 00 00 00 00 00 00 00  Length = 248000 BitCount = 127 ID = 3
   6.650248 1  5               Tx   d 8 0A 00 05 00 00 00 00 00  Length = 242000 BitCount = 124 ID = 5
   6.700254 1  0               Tx   d 8 00 00 00 00 00 00 00 00  Length = 248000 BitCount = 127 ID = 0
   6.800254 1  0               Tx   d 8 00 00 00 00 00 00 00 00  Length = 248000 BitCount = 127 ID = 0
   6.800508 1  3               Tx   d 8 00 00 00 00 00 00 00 00  Length = 248000 BitCount = 127 ID = 3
   6.850246 1  5               Tx   d 8 05 00 05 00 00 00 00 00  Length = 240000 BitCount = 123 ID = 5
   6.900254 1  0               Tx   d 8 00 00 00 00 00 00 00 00  Length = 248000 BitCount = 127 ID = 0
   6.900508 1  2               Tx   d 8 00 00 00 00 00 00 00 00  Length = 248000 BitCount = 127 ID = 2
   7.000000 1  Statistic: D 26 R 0 XD 0 XR 0 E 0 O 0 B 0.64%
   7.000254 1  0               Tx   d 8 00 00 00 00 00 00 00 00  Length = 248000 BitCount = 127 ID = 0
   7.000502 1  1               Tx   d 8 00 BD 01 00 00 00 00 00  Length = 242000 BitCount = 124 ID = 1
   7.000756 1  3               Tx   d 8 00 00 00 00 00 00 00 00  Length = 248000 BitCount = 127 ID = 3
   7.050248 1  5               Tx   d 8 00 00 05 00 00 00 00 00  Length = 242000 BitCount = 124 ID = 5
   7.100254 1  0               Tx   d 8 00 00 00 00 00 00 00 00  Length = 248000 BitCount = 127 ID = 0
   7.200254 1  0               Tx   d 8 00 00 00 00 00 00 00 00  Length = 248000 BitCount = 127 ID = 0
   7.200508 1  2               Tx   d 8 00 00 00 00 00 00 00 00  Length = 248000 BitCount = 127 ID = 2
   7.200762 1  3               Tx   d 8 00 00 00 00 00 00 00 00  Length = 248000 BitCount = 127 ID = 3
   7.250248 1  5               Tx   d 8 14 00 05 00 00 00 00 00  Length = 242000 BitCount = 124 ID = 5
   7.300254 1  0               Tx   d 8 00 00 00 00 00 00 00 00  Length = 248000 BitCount = 127 ID = 0
   7.400254 1  0               Tx   d 8 00 00 00 00 00 00 00 00  Length = 248000 BitCount = 127 ID = 0
   7.400508 1  3               Tx   d 8 00 00 00 00 00 00 00 00  Length = 248000 BitCount = 127 ID = 3
   7.450248 1  5               Tx   d 8 0F 00 05 00 00 00 00 00  Length = 242000 BitCount = 124 ID = 5
   7.500254 1  0               Tx   d 8 00 00 00 00 00 00 00 00  Length = 248000 BitCount = 127 ID = 0
   7.500502 1  1               Tx   d 8 00 DB 01 00 00 00 00 00  Length = 242000 BitCount = 124 ID = 1
   7.500756 1  2               Tx   d 8 00 00 00 00 00 00 00 00  Length = 248000 BitCount = 127 ID = 2
   7.600254 1  0               Tx   d 8 00 00 00 00 00 00 00 00  Length = 248000 BitCount = 127 ID = 0
   7.600508 1  3               Tx   d 8 00 00 00 00 00 00 00 00  Length = 248000 BitCount = 127 ID = 3
   7.650248 1  5               Tx   d 8 0A 00 05 00 00 00 00 00  Length = 242000 BitCount = 124 ID = 5
   7.700254 1  0               Tx   d 8 00 00 00 00 00 00 00 00  Length = 248000 BitCount = 127 ID = 0
   7.800254 1  0               Tx   d 8 00 00 00 00 00 00 00 00  Length = 248000 BitCount = 127 ID = 0
   7.800508 1  2               Tx   d 8 00 00 00 00 00 00 00 00  Length = 248000 BitCount = 127 ID = 2
   7.800762 1  3               Tx   d 8 00 00 00 00 00 00 00 00  Length = 248000 BitCount = 127 ID = 3
   7.850246 1  5               Tx   d 8 05 00 05 00 00 00 00 00  Length = 240000 BitCount = 123 ID = 5
   7.900254 1  0               Tx   d 8 00 00 00 00 00 00 00 00  Length = 248000 BitCount = 127 ID = 0
   8.000000 1  Statistic: D 25 R 0 XD 0 XR 0 E 0 O 0 B 0.62%
   8.000254 1  0               Tx   d 8 00 00 00 00 00 00 00 00  Length = 248000 BitCount = 127 ID = 0
   8.000504 1  1               Tx   d 8 00 08 02 00 00 00 00 00  Length = 244000 BitCount = 125 ID = 1
   8.000758 1  3               Tx   d 8 00 00 00 00 00 00 00 00  Length = 248000 BitCount = 127 ID = 3
   8.050248 1  5               Tx   d 8 00 00 05 00 00 00 00 00  Length = 242000 BitCount = 124 ID = 5
   8.100254 1  0               Tx   d 8 00 00 00 00 00 00 00 00  Length = 248000 BitCount = 127 ID = 0
   8.100508 1  2               Tx   d 8 00 00 00 00 00 00 00 00  Length = 248000 BitCount = 127 ID = 2
   8.200254 1  0               Tx   d 8 00 00 00 00 00 00 00 00  Length = 248000 BitCount = 127 ID = 0
   8.200508 1  3               Tx   d 8 00 00 00 00 00 00 00 00  Length = 248000 BitCount = 127 ID = 3
   8.250248 1  5               Tx   d 8 14 00 05 00 00 00 00 00  Length = 242000 BitCount = 124 ID = 5
   8.300254 1  0               Tx   d 8 00 00 00 00 00 00 00 00  Length = 248000 BitCount = 127 ID = 0
   8.400254 1  0               Tx   d 8 00 00 00 00 00 00 00 00  Length = 248000 BitCount = 127 ID = 0
   8.400508 1  2               Tx   d 8 00 00 00 00 00 00 00 00  Length = 248000 BitCount = 127 ID = 2
   8.400762 1  3               Tx   d 8 00 00 00 00 00 00 00 00  Length = 248000 BitCount = 127 ID = 3
   8.450248 1  5               Tx   d 8 0F 00 05 00 00 00 00 00  Length = 242000 BitCount = 124 ID = 5
   8.500254 1  0               Tx   d 8 00 00 00 00 00 00 00 00  Length = 248000 BitCount = 127 ID = 0
   8.500502 1  1               Tx   d 8 00 26 02 00 00 00 00 00  Length = 242000 BitCount = 124 ID = 1
   8.600254 1  0               Tx   d 8 00 00 00 00 00 00 00 00  Length = 248000 BitCount = 127 ID = 0
   8.600508 1  3               Tx   d 8 00 00 00 00 00 00 00 00  Length = 248000 BitCount = 127 ID = 3
   8.650248 1  5               Tx   d 8 0A 00 05 00 00 00 00 00  Length = 242000 BitCount = 124 ID = 5
   8.700254 1  0               Tx   d 8 00 00 00 00 00 00 00 00  Length = 248000 BitCount = 127 ID = 0
   8.700508 1  2               Tx   d 8 00 00 00 00 00 00 00 00  Length = 248000 BitCount = 127 ID = 2
   8.800254 1  0               Tx   d 8 00 00 00 00 00 00 00 00  Length = 248000 BitCount = 127 ID = 0
   8.800508 1  3               Tx   d 8 00 00 00 00 00 00 00 00  Length = 248000 BitCount = 127 ID = 3
   8.850246 1  5               Tx   d 8 05 00 05 00 00 00 00 00  Length = 240000 BitCount = 123 ID = 5
   8.900254 1  0               Tx   d 8 00 00 00 00 00 00 00 00  Length = 248000 BitCount = 127 ID = 0
   9.000000 1  Statistic: D 25 R 0 XD 0 XR 0 E 0 O 0 B 0.62%
   9.000254 1  0               Tx   d 8 00 00 00 00 00 00 00 00  Length = 248000 BitCount = 127 ID = 0
   9.000502 1  1               Tx   d 8 00 53 02 00 00 00 00 00  Length = 242000 BitCount = 124 ID = 1
   9.000756 1  2               Tx   d 8 00 00 00 00 00 00 00 00  Length = 248000 BitCount = 127 ID = 2
   9.001010 1  3               Tx   d 8 00 00 00 00 00 00 00 00  Length = 248000 BitCount = 127 ID = 3
   9.050248 1  5               Tx   d 8 00 00 05 00 00 00 00 00  Length = 242000 BitCount = 124 ID = 5
   9.100254 1  0               Tx   d 8 00 00 00 00 00 00 00 00  Length = 248000 BitCount = 127 ID = 0
   9.200254 1  0               Tx   d 8 00 00 00 00 00 00 00 00  Length = 248000 BitCount = 127 ID = 0
   9.200508 1  3               Tx   d 8 00 00 00 00 00 00 00 00  Length = 248000 BitCount = 127 ID = 3
   9.250248 1  5               Tx   d 8 14 00 05 00 00 00 00 00  Length = 242000 BitCount = 124 ID = 5
   9.300254 1  0               Tx   d 8 00 00 00 00 00 00 00 00  Length = 248000 BitCount = 127 ID = 0
   9.300508 1  2               Tx   d 8 00 00 00 00 00 00 00 00  Length = 248000 BitCount = 127 ID = 2
   9.400254 1  0               Tx   d 8 00 00 00 00 00 00 00 00  Length = 248000 BitCount = 127 ID = 0
   9.400508 1  3               Tx   d 8 00 00 00 00 00 00 00 00  Length = 248000 BitCount = 127 ID = 3
   9.450248 1  5               Tx   d 8 0F 00 05 00 00 00 00 00  Length = 242000 BitCount = 124 ID = 5
   9.500254 1  0               Tx   d 8 00 00 00 00 00 00 00 00  Length = 248000 BitCount = 127 ID = 0
   9.500502 1  1               Tx   d 8 00 71 02 00 00 00 00 00  Length = 242000 BitCount = 124 ID = 1
   9.600254 1  0               Tx   d 8 00 00 00 00 00 00 00 00  Length = 248000 BitCount = 127 ID = 0
   9.600508 1  2               Tx   d 8 00 00 00 00 00 00 00 00  Length = 248000 BitCount = 127 ID = 2
   9.600762 1  3               Tx   d 8 00 00 00 00 00 00 00 00  Length = 248000 BitCount = 127 ID = 3
   9.650248 1  5               Tx   d 8 0A 00 05 00 00 00 00 00  Length = 242000 BitCount = 124 ID = 5
   9.700254 1  0               Tx   d 8 00 00 00 00 00 00 00 00  Length = 248000 BitCount = 127 ID = 0
   9.800254 1  0               Tx   d 8 00 00 00 00 00 00 00 00  Length = 248000 BitCount = 127 ID = 0
   9.800508 1  3               Tx   d 8 00 00 00 00 00 00 00 00  Length = 248000 BitCount = 127 ID = 3
   9.850246 1  5               Tx   d 8 05 00 05 00 00 00 00 00  Length = 240000 BitCount = 123 ID = 5
   9.900254 1  0               Tx   d 8 00 00 00 00 00 00 00 00  Length = 248000 BitCount = 127 ID = 0
   9.900508 1  2               Tx   d 8 00 00 00 00 00 00 00 00  Length = 248000 BitCount = 127 ID = 2
  10.000000 1  Statistic: D 26 R 0 XD 0 XR 0 E 0 O 0 B 0.64%
  10.000254 1  0               Tx   d 8 00 00 00 00 00 00 00 00  Length = 248000 BitCount = 127 ID = 0
  10.000504 1  1               Tx   d 8 00 9E 02 00 00 00 00 00  Length = 244000 BitCount = 125 ID = 1
  10.000758 1  3               Tx   d 8 00 00 00 00 00 00 00 00  Length = 248000 BitCount = 127 ID = 3
  10.050248 1  5               Tx   d 8 00 00 05 00 00 00 00 00  Length = 242000 BitCount = 124 ID = 5
  10.100254 1  0               Tx   d 8 00 00 00 00 00 00 00 00  Length = 248000 BitCount = 127 ID = 0
  10.200254 1  0               Tx   d 8 00 00 00 00 00 00 00 00  Length = 248000 BitCount = 127 ID = 0
  10.200508 1  2               Tx   d 8 00 00 00 00 00 00 00 00  Length = 248000 BitCount = 127 ID = 2
  10.200762 1  3               Tx   d 8 00 00 00 00 00 00 00 00  Length = 248000 BitCount = 127 ID = 3
  10.250248 1  5               Tx   d 8 14 00 05 00 00 00 00 00  Length = 242000 BitCount = 124 ID = 5
  10.300254 1  0               Tx   d 8 00 00 00 00 00 00 00 00  Length = 248000 BitCount = 127 ID = 0
  10.340000    env_gear     := 2
  10.400254 1  0               Tx   d 8 00 00 00 00 00 00 00 00  Length = 248000 BitCount = 127 ID = 0
  10.400508 1  3               Tx   d 8 00 00 00 00 00 00 00 00  Length = 248000 BitCount = 127 ID = 3
  10.450248 1  5               Tx   d 8 0F 00 05 00 00 00 00 00  Length = 242000 BitCount = 124 ID = 5
  10.500254 1  0               Tx   d 8 00 00 00 00 00 00 00 00  Length = 248000 BitCount = 127 ID = 0
  10.500502 1  1               Tx   d 8 00 BC 02 00 00 00 00 00  Length = 242000 BitCount = 124 ID = 1
  10.500756 1  2               Tx   d 8 00 00 00 00 00 00 00 00  Length = 248000 BitCount = 127 ID = 2
  10.600254 1  0               Tx   d 8 00 00 00 00 00 00 00 00  Length = 248000 BitCount = 127 ID = 0
  10.600508 1  3               Tx   d 8 00 00 00 00 00 00 00 00  Length = 248000 BitCount = 127 ID = 3
  10.650248 1  5               Tx   d 8 0A 00 05 00 00 00 00 00  Length = 242000 BitCount = 124 ID = 5
  10.700254 1  0               Tx   d 8 00 00 00 00 00 00 00 00  Length = 248000 BitCount = 127 ID = 0
  10.800254 1  0               Tx   d 8 00 00 00 00 00 00 00 00  Length = 248000 BitCount = 127 ID = 0
  10.800508 1  2               Tx   d 8 00 00 00 00 00 00 00 00  Length = 248000 BitCount = 127 ID = 2
  10.800762 1  3               Tx   d 8 00 00 00 00 00 00 00 00  Length = 248000 BitCount = 127 ID = 3
  10.850248 1  5               Tx   d 8 0F 00 05 00 00 00 00 00  Length = 242000 BitCount = 124 ID = 5
  10.900254 1  0               Tx   d 8 00 00 00 00 00 00 00 00  Length = 248000 BitCount = 127 ID = 0
  11.000000 1  Statistic: D 25 R 0 XD 0 XR 0 E 0 O 0 B 0.62%
  11.000254 1  0               Tx   d 8 00 00 00 00 00 00 00 00  Length = 248000 BitCount = 127 ID = 0
  11.000504 1  1               Tx   d 8 00 74 09 00 00 00 00 00  Length = 244000 BitCount = 125 ID = 1
  11.000758 1  3               Tx   d 8 00 00 00 00 00 00 00 00  Length = 248000 BitCount = 127 ID = 3
  11.050248 1  5               Tx   d 8 14 00 05 00 00 00 00 00  Length = 242000 BitCount = 124 ID = 5
  11.100254 1  0               Tx   d 8 00 00 00 00 00 00 00 00  Length = 248000 BitCount = 127 ID = 0
  11.100508 1  2               Tx   d 8 00 00 00 00 00 00 00 00  Length = 248000 BitCount = 127 ID = 2
  11.200254 1  0               Tx   d 8 00 00 00 00 00 00 00 00  Length = 248000 BitCount = 127 ID = 0
  11.200508 1  3               Tx   d 8 00 00 00 00 00 00 00 00  Length = 248000 BitCount = 127 ID = 3
  11.250248 1  5               Tx   d 8 19 00 05 00 00 00 00 00  Length = 242000 BitCount = 124 ID = 5
  11.300254 1  0               Tx   d 8 00 00 00 00 00 00 00 00  Length = 248000 BitCount = 127 ID = 0
  11.400254 1  0               Tx   d 8 00 00 00 00 00 00 00 00  Length = 248000 BitCount = 127 ID = 0
  11.400508 1  2               Tx   d 8 00 00 00 00 00 00 00 00  Length = 248000 BitCount = 127 ID = 2
  11.400762 1  3               Tx   d 8 00 00 00 00 00 00 00 00  Length = 248000 BitCount = 127 ID = 3
  11.450248 1  5               Tx   d 8 1E 00 05 00 00 00 00 00  Length = 242000 BitCount = 124 ID = 5
  11.500254 1  0               Tx   d 8 00 00 00 00 00 00 00 00  Length = 248000 BitCount = 127 ID = 0
  11.500504 1  1               Tx   d 8 00 7E 09 00 00 00 00 00  Length = 244000 BitCount = 125 ID = 1
  11.600254 1  0               Tx   d 8 00 00 00 00 00 00 00 00  Length = 248000 BitCount = 127 ID = 0
  11.600508 1  3               Tx   d 8 00 00 00 00 00 00 00 00  Length = 248000 BitCount = 127 ID = 3
  11.650248 1  5               Tx   d 8 23 00 05 00 00 00 00 00  Length = 242000 BitCount = 124 ID = 5
  11.700254 1  0               Tx   d 8 00 00 00 00 00 00 00 00  Length = 248000 BitCount = 127 ID = 0
  11.700508 1  2               Tx   d 8 00 00 00 00 00 00 00 00  Length = 248000 BitCount = 127 ID = 2
  11.800254 1  0               Tx   d 8 00 00 00 00 00 00 00 00  Length = 248000 BitCount = 127 ID = 0
  11.800508 1  3               Tx   d 8 00 00 00 00 00 00 00 00  Length = 248000 BitCount = 127 ID = 3
  11.850248 1  5               Tx   d 8 28 00 05 00 00 00 00 00  Length = 242000 BitCount = 124 ID = 5
  11.900254 1  0               Tx   d 8 00 00 00 00 00 00 00 00  Length = 248000 BitCount = 127 ID = 0
  12.000000 1  Statistic: D 25 R 0 XD 0 XR 0 E 0 O 0 B 0.62%
  12.000254 1  0               Tx   d 8 00 00 00 00 00 00 00 00  Length = 248000 BitCount = 127 ID = 0
  12.000502 1  1               Tx   d 8 00 8D 09 00 00 00 00 00  Length = 242000 BitCount = 124 ID = 1
  12.000756 1  2               Tx   d 8 00 00 00 00 00 00 00 00  Length = 248000 BitCount = 127 ID = 2
  12.001010 1  3               Tx   d 8 00 00 00 00 00 00 00 00  Length = 248000 BitCount = 127 ID = 3
  12.050248 1  5               Tx   d 8 2D 00 05 00 00 00 00 00  Length = 242000 BitCount = 124 ID = 5
  12.100254 1  0               Tx   d 8 00 00 00 00 00 00 00 00  Length = 248000 BitCount = 127 ID = 0
  12.200254 1  0               Tx   d 8 00 00 00 00 00 00 00 00  Length = 248000 BitCount = 127 ID = 0
  12.200508 1  3               Tx   d 8 00 00 00 00 00 00 00 00  Length = 248000 BitCount = 127 ID = 3
  12.250246 1  5               Tx   d 8 32 00 05 00 00 00 00 00  Length = 240000 BitCount = 123 ID = 5
  12.300254 1  0               Tx   d 8 00 00 00 00 00 00 00 00  Length = 248000 BitCount = 127 ID = 0
  12.300508 1  2               Tx   d 8 00 00 00 00 00 00 00 00  Length = 248000 BitCount = 127 ID = 2
  12.400254 1  0               Tx   d 8 00 00 00 00 00 00 00 00  Length = 248000 BitCount = 127 ID = 0
  12.400508 1  3               Tx   d 8 00 00 00 00 00 00 00 00  Length = 248000 BitCount = 127 ID = 3
  12.450248 1  5               Tx   d 8 37 00 05 00 00 00 00 00  Length = 242000 BitCount = 124 ID = 5
  12.500254 1  0               Tx   d 8 00 00 00 00 00 00 00 00  Length = 248000 BitCount = 127 ID = 0
  12.500502 1  1               Tx   d 8 00 97 09 00 00 00 00 00  Length = 242000 BitCount = 124 ID = 1
  12.600254 1  0               Tx   d 8 00 00 00 00 00 00 00 00  Length = 248000 BitCount = 127 ID = 0
  12.600508 1  2               Tx   d 8 00 00 00 00 00 00 00 00  Length = 248000 BitCount = 127 ID = 2
  12.600762 1  3               Tx   d 8 00 00 00 00 00 00 00 00  Length = 248000 BitCount = 127 ID = 3
  12.650254 1  5               Tx   d 8 3C 00 05 00 00 00 00 00  Length = 248000 BitCount = 127 ID = 5
  12.700254 1  0               Tx   d 8 00 00 00 00 00 00 00 00  Length = 248000 BitCount = 127 ID = 0
  12.800254 1  0               Tx   d 8 00 00 00 00 00 00 00 00  Length = 248000 BitCount = 127 ID = 0
  12.800508 1  3               Tx   d 8 00 00 00 00 00 00 00 00  Length = 248000 BitCount = 127 ID = 3
  12.850246 1  5               Tx   d 8 41 00 05 00 00 00 00 00  Length = 240000 BitCount = 123 ID = 5
  12.900254 1  0               Tx   d 8 00 00 00 00 00 00 00 00  Length = 248000 BitCount = 127 ID = 0
  12.900508 1  2               Tx   d 8 00 00 00 00 00 00 00 00  Length = 248000 BitCount = 127 ID = 2
  13.000000 1  Statistic: D 26 R 0 XD 0 XR 0 E 0 O 0 B 0.64%
  13.000254 1  0               Tx   d 8 00 00 00 00 00 00 00 00  Length = 248000 BitCount = 127 ID = 0
  13.000502 1  1               Tx   d 8 00 A6 09 00 00 00 00 00  Length = 242000 BitCount = 124 ID = 1
  13.000756 1  3               Tx   d 8 00 00 00 00 00 00 00 00  Length = 248000 BitCount = 127 ID = 3
  13.050244 1  5               Tx   d 8 46 00 05 00 00 00 00 00  Length = 238000 BitCount = 122 ID = 5
  13.100254 1  0               Tx   d 8 00 00 00 00 00 00 00 00  Length = 248000 BitCount = 127 ID = 0
  13.200254 1  0               Tx   d 8 00 00 00 00 00 00 00 00  Length = 248000 BitCount = 127 ID = 0
  13.200508 1  2               Tx   d 8 00 00 00 00 00 00 00 00  Length = 248000 BitCount = 127 ID = 2
  13.200762 1  3               Tx   d 8 00 00 00 00 00 00 00 00  Length = 248000 BitCount = 127 ID = 3
  13.250244 1  5               Tx   d 8 4B 00 05 00 00 00 00 00  Length = 238000 BitCount = 122 ID = 5
  13.300254 1  0               Tx   d 8 00 00 00 00 00 00 00 00  Length = 248000 BitCount = 127 ID = 0
  13.400254 1  0               Tx   d 8 00 00 00 00 00 00 00 00  Length = 248000 BitCount = 127 ID = 0
  13.400508 1  3               Tx   d 8 00 00 00 00 00 00 00 00  Length = 248000 BitCount = 127 ID = 3
  13.450244 1  5               Tx   d 8 4B 00 05 00 00 00 00 00  Length = 238000 BitCount = 122 ID = 5
  13.500254 1  0               Tx   d 8 00 00 00 00 00 00 00 00  Length = 248000 BitCount = 127 ID = 0
  13.500502 1  1               Tx   d 8 00 B0 09 00 00 00 00 00  Length = 242000 BitCount = 124 ID = 1
  13.500756 1  2               Tx   d 8 00 00 00 00 00 00 00 00  Length = 248000 BitCount = 127 ID = 2
  13.600254 1  0               Tx   d 8 00 00 00 00 00 00 00 00  Length = 248000 BitCount = 127 ID = 0
  13.600508 1  3               Tx   d 8 00 00 00 00 00 00 00 00  Length = 248000 BitCount = 127 ID = 3
  13.650244 1  5               Tx   d 8 4B 00 05 00 00 00 00 00  Length = 238000 BitCount = 122 ID = 5
  13.700254 1  0               Tx   d 8 00 00 00 00 00 00 00 00  Length = 248000 BitCount = 127 ID = 0
  13.800254 1  0               Tx   d 8 00 00 00 00 00 00 00 00  Length = 248000 BitCount = 127 ID = 0
  13.800508 1  2               Tx   d 8 00 00 00 00 00 00 00 00  Length = 248000 BitCount = 127 ID = 2
  13.800762 1  3               Tx   d 8 00 00 00 00 00 00 00 00  Length = 248000 BitCount = 127 ID = 3
  13.850244 1  5               Tx   d 8 4B 00 05 00 00 00 00 00  Length = 238000 BitCount = 122 ID = 5
  13.900254 1  0               Tx   d 8 00 00 00 00 00 00 00 00  Length = 248000 BitCount = 127 ID = 0
  14.000000 1  Statistic: D 25 R 0 XD 0 XR 0 E 0 O 0 B 0.62%
  14.000254 1  0               Tx   d 8 00 00 00 00 00 00 00 00  Length = 248000 BitCount = 127 ID = 0
  14.000502 1  1               Tx   d 8 00 B5 09 00 00 00 00 00  Length = 242000 BitCount = 124 ID = 1
  14.000756 1  3               Tx   d 8 00 00 00 00 00 00 00 00  Length = 248000 BitCount = 127 ID = 3
  14.050244 1  5               Tx   d 8 4B 00 05 00 00 00 00 00  Length = 238000 BitCount = 122 ID = 5
  14.100254 1  0               Tx   d 8 00 00 00 00 00 00 00 00  Length = 248000 BitCount = 127 ID = 0
  14.100508 1  2               Tx   d 8 00 00 00 00 00 00 00 00  Length = 248000 BitCount = 127 ID = 2
  14.200254 1  0               Tx   d 8 00 00 00 00 00 00 00 00  Length = 248000 BitCount = 127 ID = 0
  14.200508 1  3               Tx   d 8 00 00 00 00 00 00 00 00  Length = 248000 BitCount = 127 ID = 3
  14.250244 1  5               Tx   d 8 4B 00 05 00 00 00 00 00  Length = 238000 BitCount = 122 ID = 5
  14.300254 1  0               Tx   d 8 00 00 00 00 00 00 00 00  Length = 248000 BitCount = 127 ID = 0
  14.400254 1  0               Tx   d 8 00 00 00 00 00 00 00 00  Length = 248000 BitCount = 127 ID = 0
  14.400508 1  2               Tx   d 8 00 00 00 00 00 00 00 00  Length = 248000 BitCount = 127 ID = 2
  14.400762 1  3               Tx   d 8 00 00 00 00 00 00 00 00  Length = 248000 BitCount = 127 ID = 3
  14.450244 1  5               Tx   d 8 4B 00 05 00 00 00 00 00  Length = 238000 BitCount = 122 ID = 5
  14.500254 1  0               Tx   d 8 00 00 00 00 00 00 00 00  Length = 248000 BitCount = 127 ID = 0
  14.500502 1  1               Tx   d 8 00 B5 09 00 00 00 00 00  Length = 242000 BitCount = 124 ID = 1
  14.600254 1  0               Tx   d 8 00 00 00 00 00 00 00 00  Length = 248000 BitCount = 127 ID = 0
  14.600508 1  3               Tx   d 8 00 00 00 00 00 00 00 00  Length = 248000 BitCount = 127 ID = 3
  14.650244 1  5               Tx   d 8 4B 00 05 00 00 00 00 00  Length = 238000 BitCount = 122 ID = 5
  14.700254 1  0               Tx   d 8 00 00 00 00 00 00 00 00  Length = 248000 BitCount = 127 ID = 0
  14.700508 1  2               Tx   d 8 00 00 00 00 00 00 00 00  Length = 248000 BitCount = 127 ID = 2
  14.800254 1  0               Tx   d 8 00 00 00 00 00 00 00 00  Length = 248000 BitCount = 127 ID = 0
  14.800508 1  3               Tx   d 8 00 00 00 00 00 00 00 00  Length = 248000 BitCount = 127 ID = 3
  14.850244 1  5               Tx   d 8 4B 00 05 00 00 00 00 00  Length = 238000 BitCount = 122 ID = 5
  14.900254 1  0               Tx   d 8 00 00 00 00 00 00 00 00  Length = 248000 BitCount = 127 ID = 0
  15.000000 1  Statistic: D 25 R 0 XD 0 XR 0 E 0 O 0 B 0.62%
  15.000254 1  0               Tx   d 8 00 00 00 00 00 00 00 00  Length = 248000 BitCount = 127 ID = 0
  15.000502 1  1               Tx   d 8 00 B5 09 00 00 00 00 00  Length = 242000 BitCount = 124 ID = 1
  15.000756 1  2               Tx   d 8 00 00 00 00 00 00 00 00  Length = 248000 BitCount = 127 ID = 2
  15.001010 1  3               Tx   d 8 00 00 00 00 00 00 00 00  Length = 248000 BitCount = 127 ID = 3
  15.050244 1  5               Tx   d 8 4B 00 05 00 00 00 00 00  Length = 238000 BitCount = 122 ID = 5
  15.100254 1  0               Tx   d 8 00 00 00 00 00 00 00 00  Length = 248000 BitCount = 127 ID = 0
  15.200254 1  0               Tx   d 8 00 00 00 00 00 00 00 00  Length = 248000 BitCount = 127 ID = 0
  15.200508 1  3               Tx   d 8 00 00 00 00 00 00 00 00  Length = 248000 BitCount = 127 ID = 3
  15.250244 1  5               Tx   d 8 4B 00 05 00 00 00 00 00  Length = 238000 BitCount = 122 ID = 5
  15.300254 1  0               Tx   d 8 00 00 00 00 00 00 00 00  Length = 248000 BitCount = 127 ID = 0
  15.300508 1  2               Tx   d 8 00 00 00 00 00 00 00 00  Length = 248000 BitCount = 127 ID = 2
  15.400254 1  0               Tx   d 8 00 00 00 00 00 00 00 00  Length = 248000 BitCount = 127 ID = 0
  15.400508 1  3               Tx   d 8 00 00 00 00 00 00 00 00  Length = 248000 BitCount = 127 ID = 3
  15.450244 1  5               Tx   d 8 4B 00 05 00 00 00 00 00  Length = 238000 BitCount = 122 ID = 5
  15.500254 1  0               Tx   d 8 00 00 00 00 00 00 00 00  Length = 248000 BitCount = 127 ID = 0
  15.500502 1  1               Tx   d 8 00 B5 09 00 00 00 00 00  Length = 242000 BitCount = 124 ID = 1
  15.600254 1  0               Tx   d 8 00 00 00 00 00 00 00 00  Length = 248000 BitCount = 127 ID = 0
  15.600508 1  2               Tx   d 8 00 00 00 00 00 00 00 00  Length = 248000 BitCount = 127 ID = 2
  15.600762 1  3               Tx   d 8 00 00 00 00 00 00 00 00  Length = 248000 BitCount = 127 ID = 3
  15.650244 1  5               Tx   d 8 4B 00 05 00 00 00 00 00  Length = 238000 BitCount = 122 ID = 5
  15.700254 1  0               Tx   d 8 00 00 00 00 00 00 00 00  Length = 248000 BitCount = 127 ID = 0
  15.800254 1  0               Tx   d 8 00 00 00 00 00 00 00 00  Length = 248000 BitCount = 127 ID = 0
  15.800508 1  3               Tx   d 8 00 00 00 00 00 00 00 00  Length = 248000 BitCount = 127 ID = 3
  15.850244 1  5               Tx   d 8 4B 00 05 00 00 00 00 00  Length = 238000 BitCount = 122 ID = 5
  15.900254 1  0               Tx   d 8 00 00 00 00 00 00 00 00  Length = 248000 BitCount = 127 ID = 0
  15.900508 1  2               Tx   d 8 00 00 00 00 00 00 00 00  Length = 248000 BitCount = 127 ID = 2
  16.000000 1  Statistic: D 26 R 0 XD 0 XR 0 E 0 O 0 B 0.64%
  16.000254 1  0               Tx   d 8 00 00 00 00 00 00 00 00  Length = 248000 BitCount = 127 ID = 0
  16.000502 1  1               Tx   d 8 00 B5 09 00 00 00 00 00  Length = 242000 BitCount = 124 ID = 1
  16.000756 1  3               Tx   d 8 00 00 00 00 00 00 00 00  Length = 248000 BitCount = 127 ID = 3
  16.050244 1  5               Tx   d 8 4B 00 05 00 00 00 00 00  Length = 238000 BitCount = 122 ID = 5
  16.100254 1  0               Tx   d 8 00 00 00 00 00 00 00 00  Length = 248000 BitCount = 127 ID = 0
  16.200254 1  0               Tx   d 8 00 00 00 00 00 00 00 00  Length = 248000 BitCount = 127 ID = 0
  16.200508 1  2               Tx   d 8 00 00 00 00 00 00 00 00  Length = 248000 BitCount = 127 ID = 2
  16.200762 1  3               Tx   d 8 00 00 00 00 00 00 00 00  Length = 248000 BitCount = 127 ID = 3
  16.250244 1  5               Tx   d 8 4B 00 05 00 00 00 00 00  Length = 238000 BitCount = 122 ID = 5
  16.300254 1  0               Tx   d 8 00 00 00 00 00 00 00 00  Length = 248000 BitCount = 127 ID = 0
  16.400254 1  0               Tx   d 8 00 00 00 00 00 00 00 00  Length = 248000 BitCount = 127 ID = 0
  16.400508 1  3               Tx   d 8 00 00 00 00 00 00 00 00  Length = 248000 BitCount = 127 ID = 3
  16.450244 1  5               Tx   d 8 4B 00 05 00 00 00 00 00  Length = 238000 BitCount = 122 ID = 5
  16.500254 1  0               Tx   d 8 00 00 00 00 00 00 00 00  Length = 248000 BitCount = 127 ID = 0
  16.500502 1  1               Tx   d 8 00 B5 09 00 00 00 00 00  Length = 242000 BitCount = 124 ID = 1
  16.500756 1  2               Tx   d 8 00 00 00 00 00 00 00 00  Length = 248000 BitCount = 127 ID = 2
  16.600254 1  0               Tx   d 8 00 00 00 00 00 00 00 00  Length = 248000 BitCount = 127 ID = 0
  16.600508 1  3               Tx   d 8 00 00 00 00 00 00 00 00  Length = 248000 BitCount = 127 ID = 3
  16.650244 1  5               Tx   d 8 4B 00 05 00 00 00 00 00  Length = 238000 BitCount = 122 ID = 5
  16.700254 1  0               Tx   d 8 00 00 00 00 00 00 00 00  Length = 248000 BitCount = 127 ID = 0
  16.800254 1  0               Tx   d 8 00 00 00 00 00 00 00 00  Length = 248000 BitCount = 127 ID = 0
  16.800508 1  2               Tx   d 8 00 00 00 00 00 00 00 00  Length = 248000 BitCount = 127 ID = 2
  16.800762 1  3               Tx   d 8 00 00 00 00 00 00 00 00  Length = 248000 BitCount = 127 ID = 3
  16.850244 1  5               Tx   d 8 4B 00 05 00 00 00 00 00  Length = 238000 BitCount = 122 ID = 5
  16.900254 1  0               Tx   d 8 00 00 00 00 00 00 00 00  Length = 248000 BitCount = 127 ID = 0
  17.000000 1  Statistic: D 25 R 0 XD 0 XR 0 E 0 O 0 B 0.62%
  17.000254 1  0               Tx   d 8 00 00 00 00 00 00 00 00  Length = 248000 BitCount = 127 ID = 0
  17.000502 1  1               Tx   d 8 00 B5 09 00 00 00 00 00  Length = 242000 BitCount = 124 ID = 1
  17.000756 1  3               Tx   d 8 00 00 00 00 00 00 00 00  Length = 248000 BitCount = 127 ID = 3
  17.050244 1  5               Tx   d 8 4B 00 05 00 00 00 00 00  Length = 238000 BitCount = 122 ID = 5
  17.100254 1  0               Tx   d 8 00 00 00 00 00 00 00 00  Length = 248000 BitCount = 127 ID = 0
  17.100508 1  2               Tx   d 8 00 00 00 00 00 00 00 00  Length = 248000 BitCount = 127 ID = 2
  17.200254 1  0               Tx   d 8 00 00 00 00 00 00 00 00  Length = 248000 BitCount = 127 ID = 0
  17.200508 1  3               Tx   d 8 00 00 00 00 00 00 00 00  Length = 248000 BitCount = 127 ID = 3
  17.250244 1  5               Tx   d 8 4B 00 05 00 00 00 00 00  Length = 238000 BitCount = 122 ID = 5
  17.300254 1  0               Tx   d 8 00 00 00 00 00 00 00 00  Length = 248000 BitCount = 127 ID = 0
  17.400254 1  0               Tx   d 8 00 00 00 00 00 00 00 00  Length = 248000 BitCount = 127 ID = 0
  17.400508 1  2               Tx   d 8 00 00 00 00 00 00 00 00  Length = 248000 BitCount = 127 ID = 2
  17.400762 1  3               Tx   d 8 00 00 00 00 00 00 00 00  Length = 248000 BitCount = 127 ID = 3
  17.450244 1  5               Tx   d 8 4B 00 05 00 00 00 00 00  Length = 238000 BitCount = 122 ID = 5
  17.490000    env_Acceleration_Ped := 6
  17.500254 1  0               Tx   d 8 00 00 00 00 00 00 00 00  Length = 248000 BitCount = 127 ID = 0
  17.500502 1  1               Tx   d 8 00 B5 09 00 00 00 00 00  Length = 242000 BitCount = 124 ID = 1
  17.600254 1  0               Tx   d 8 00 00 00 00 00 00 00 00  Length = 248000 BitCount = 127 ID = 0
  17.600508 1  3               Tx   d 8 00 00 00 00 00 00 00 00  Length = 248000 BitCount = 127 ID = 3
  17.650244 1  5               Tx   d 8 4B 00 05 00 00 00 00 00  Length = 238000 BitCount = 122 ID = 5
  17.700254 1  0               Tx   d 8 00 00 00 00 00 00 00 00  Length = 248000 BitCount = 127 ID = 0
  17.700508 1  2               Tx   d 8 00 00 00 00 00 00 00 00  Length = 248000 BitCount = 127 ID = 2
  17.800254 1  0               Tx   d 8 00 00 00 00 00 00 00 00  Length = 248000 BitCount = 127 ID = 0
  17.800508 1  3               Tx   d 8 00 00 00 00 00 00 00 00  Length = 248000 BitCount = 127 ID = 3
  17.850250 1  5               Tx   d 8 4B 00 06 00 00 00 00 00  Length = 244000 BitCount = 125 ID = 5
  17.900254 1  0               Tx   d 8 00 00 00 00 00 00 00 00  Length = 248000 BitCount = 127 ID = 0
  18.000000 1  Statistic: D 25 R 0 XD 0 XR 0 E 0 O 0 B 0.62%
  18.000254 1  0               Tx   d 8 00 00 00 00 00 00 00 00  Length = 248000 BitCount = 127 ID = 0
  18.000502 1  1               Tx   d 8 00 B5 09 00 00 00 00 00  Length = 242000 BitCount = 124 ID = 1
  18.000756 1  2               Tx   d 8 00 00 00 00 00 00 00 00  Length = 248000 BitCount = 127 ID = 2
  18.001010 1  3               Tx   d 8 00 00 00 00 00 00 00 00  Length = 248000 BitCount = 127 ID = 3
  18.050250 1  5               Tx   d 8 4B 00 06 00 00 00 00 00  Length = 244000 BitCount = 125 ID = 5
  18.100254 1  0               Tx   d 8 00 00 00 00 00 00 00 00  Length = 248000 BitCount = 127 ID = 0
  18.200254 1  0               Tx   d 8 00 00 00 00 00 00 00 00  Length = 248000 BitCount = 127 ID = 0
  18.200508 1  3               Tx   d 8 00 00 00 00 00 00 00 00  Length = 248000 BitCount = 127 ID = 3
  18.250250 1  5               Tx   d 8 4B 00 06 00 00 00 00 00  Length = 244000 BitCount = 125 ID = 5
  18.300254 1  0               Tx   d 8 00 00 00 00 00 00 00 00  Length = 248000 BitCount = 127 ID = 0
  18.300508 1  2               Tx   d 8 00 00 00 00 00 00 00 00  Length = 248000 BitCount = 127 ID = 2
  18.400254 1  0               Tx   d 8 00 00 00 00 00 00 00 00  Length = 248000 BitCount = 127 ID = 0
  18.400508 1  3               Tx   d 8 00 00 00 00 00 00 00 00  Length = 248000 BitCount = 127 ID = 3
  18.450250 1  5               Tx   d 8 4B 00 06 00 00 00 00 00  Length = 244000 BitCount = 125 ID = 5
  18.500254 1  0               Tx   d 8 00 00 00 00 00 00 00 00  Length = 248000 BitCount = 127 ID = 0
  18.500502 1  1               Tx   d 8 00 E5 09 00 00 00 00 00  Length = 242000 BitCount = 124 ID = 1
  18.600254 1  0               Tx   d 8 00 00 00 00 00 00 00 00  Length = 248000 BitCount = 127 ID = 0
  18.600508 1  2               Tx   d 8 00 00 00 00 00 00 00 00  Length = 248000 BitCount = 127 ID = 2
  18.600762 1  3               Tx   d 8 00 00 00 00 00 00 00 00  Length = 248000 BitCount = 127 ID = 3
  18.650250 1  5               Tx   d 8 4B 00 06 00 00 00 00 00  Length = 244000 BitCount = 125 ID = 5
  18.700254 1  0               Tx   d 8 00 00 00 00 00 00 00 00  Length = 248000 BitCount = 127 ID = 0
  18.800254 1  0               Tx   d 8 00 00 00 00 00 00 00 00  Length = 248000 BitCount = 127 ID = 0
  18.800508 1  3               Tx   d 8 00 00 00 00 00 00 00 00  Length = 248000 BitCount = 127 ID = 3
  18.850250 1  5               Tx   d 8 4B 00 06 00 00 00 00 00  Length = 244000 BitCount = 125 ID = 5
  18.900254 1  0               Tx   d 8 00 00 00 00 00 00 00 00  Length = 248000 BitCount = 127 ID = 0
  18.900508 1  2               Tx   d 8 00 00 00 00 00 00 00 00  Length = 248000 BitCount = 127 ID = 2
  19.000000 1  Statistic: D 26 R 0 XD 0 XR 0 E 0 O 0 B 0.64%
  19.000254 1  0               Tx   d 8 00 00 00 00 00 00 00 00  Length = 248000 BitCount = 127 ID = 0
  19.000502 1  1               Tx   d 8 00 E5 09 00 00 00 00 00  Length = 242000 BitCount = 124 ID = 1
  19.000756 1  3               Tx   d 8 00 00 00 00 00 00 00 00  Length = 248000 BitCount = 127 ID = 3
  19.050250 1  5               Tx   d 8 4B 00 06 00 00 00 00 00  Length = 244000 BitCount = 125 ID = 5
  19.100254 1  0               Tx   d 8 00 00 00 00 00 00 00 00  Length = 248000 BitCount = 127 ID = 0
  19.200254 1  0               Tx   d 8 00 00 00 00 00 00 00 00  Length = 248000 BitCount = 127 ID = 0
  19.200508 1  2               Tx   d 8 00 00 00 00 00 00 00 00  Length = 248000 BitCount = 127 ID = 2
  19.200762 1  3               Tx   d 8 00 00 00 00 00 00 00 00  Length = 248000 BitCount = 127 ID = 3
  19.250000    env_gear     := 5
  19.250250 1  5               Tx   d 8 4B 00 06 00 00 00 00 00  Length = 244000 BitCount = 125 ID = 5
  19.300254 1  0               Tx   d 8 00 00 00 00 00 00 00 00  Length = 248000 BitCount = 127 ID = 0
  19.400254 1  0               Tx   d 8 00 00 00 00 00 00 00 00  Length = 248000 BitCount = 127 ID = 0
  19.400508 1  3               Tx   d 8 00 00 00 00 00 00 00 00  Length = 248000 BitCount = 127 ID = 3
  19.450250 1  5               Tx   d 8 4B 00 06 00 00 00 00 00  Length = 244000 BitCount = 125 ID = 5
  19.500254 1  0               Tx   d 8 00 00 00 00 00 00 00 00  Length = 248000 BitCount = 127 ID = 0
  19.500502 1  1               Tx   d 8 00 E5 09 00 00 00 00 00  Length = 242000 BitCount = 124 ID = 1
  19.500756 1  2               Tx   d 8 00 00 00 00 00 00 00 00  Length = 248000 BitCount = 127 ID = 2
  19.600254 1  0               Tx   d 8 00 00 00 00 00 00 00 00  Length = 248000 BitCount = 127 ID = 0
  19.600508 1  3               Tx   d 8 00 00 00 00 00 00 00 00  Length = 248000 BitCount = 127 ID = 3
  19.650250 1  5               Tx   d 8 4B 00 06 00 00 00 00 00  Length = 244000 BitCount = 125 ID = 5
  19.700254 1  0               Tx   d 8 00 00 00 00 00 00 00 00  Length = 248000 BitCount = 127 ID = 0
  19.800254 1  0               Tx   d 8 00 00 00 00 00 00 00 00  Length = 248000 BitCount = 127 ID = 0
  19.800508 1  2               Tx   d 8 00 00 00 00 00 00 00 00  Length = 248000 BitCount = 127 ID = 2
  19.800762 1  3               Tx   d 8 00 00 00 00 00 00 00 00  Length = 248000 BitCount = 127 ID = 3
  19.850246 1  5               Tx   d 8 51 00 06 00 00 00 00 00  Length = 240000 BitCount = 123 ID = 5
  19.900254 1  0               Tx   d 8 00 00 00 00 00 00 00 00  Length = 248000 BitCount = 127 ID = 0
  20.000000 1  Statistic: D 25 R 0 XD 0 XR 0 E 0 O 0 B 0.62%
  20.000254 1  0               Tx   d 8 00 00 00 00 00 00 00 00  Length = 248000 BitCount = 127 ID = 0
  20.000500 1  1               Tx   d 8 00 95 0E 00 00 00 00 00  Length = 240000 BitCount = 123 ID = 1
  20.000754 1  3               Tx   d 8 00 00 00 00 00 00 00 00  Length = 248000 BitCount = 127 ID = 3
  20.050244 1  5               Tx   d 8 57 00 06 00 00 00 00 00  Length = 238000 BitCount = 122 ID = 5
  20.100254 1  0               Tx   d 8 00 00 00 00 00 00 00 00  Length = 248000 BitCount = 127 ID = 0
  20.100508 1  2               Tx   d 8 00 00 00 00 00 00 00 00  Length = 248000 BitCount = 127 ID = 2
  20.200254 1  0               Tx   d 8 00 00 00 00 00 00 00 00  Length = 248000 BitCount = 127 ID = 0
  20.200508 1  3               Tx   d 8 00 00 00 00 00 00 00 00  Length = 248000 BitCount = 127 ID = 3
  20.250248 1  5               Tx   d 8 5D 00 06 00 00 00 00 00  Length = 242000 BitCount = 124 ID = 5
  20.300254 1  0               Tx   d 8 00 00 00 00 00 00 00 00  Length = 248000 BitCount = 127 ID = 0
  20.400254 1  0               Tx   d 8 00 00 00 00 00 00 00 00  Length = 248000 BitCount = 127 ID = 0
  20.400508 1  2               Tx   d 8 00 00 00 00 00 00 00 00  Length = 248000 BitCount = 127 ID = 2
  20.400762 1  3               Tx   d 8 00 00 00 00 00 00 00 00  Length = 248000 BitCount = 127 ID = 3
  20.450244 1  5               Tx   d 8 63 00 06 00 00 00 00 00  Length = 238000 BitCount = 122 ID = 5
  20.500254 1  0               Tx   d 8 00 00 00 00 00 00 00 00  Length = 248000 BitCount = 127 ID = 0
  20.500500 1  1               Tx   d 8 00 A1 0E 00 00 00 00 00  Length = 240000 BitCount = 123 ID = 1
  20.600254 1  0               Tx   d 8 00 00 00 00 00 00 00 00  Length = 248000 BitCount = 127 ID = 0
  20.600508 1  3               Tx   d 8 00 00 00 00 00 00 00 00  Length = 248000 BitCount = 127 ID = 3
  20.650246 1  5               Tx   d 8 69 00 06 00 00 00 00 00  Length = 240000 BitCount = 123 ID = 5
  20.700254 1  0               Tx   d 8 00 00 00 00 00 00 00 00  Length = 248000 BitCount = 127 ID = 0
  20.700508 1  2               Tx   d 8 00 00 00 00 00 00 00 00  Length = 248000 BitCount = 127 ID = 2
  20.800254 1  0               Tx   d 8 00 00 00 00 00 00 00 00  Length = 248000 BitCount = 127 ID = 0
  20.800508 1  3               Tx   d 8 00 00 00 00 00 00 00 00  Length = 248000 BitCount = 127 ID = 3
  20.850244 1  5               Tx   d 8 6F 00 06 00 00 00 00 00  Length = 238000 BitCount = 122 ID = 5
  20.900254 1  0               Tx   d 8 00 00 00 00 00 00 00 00  Length = 248000 BitCount = 127 ID = 0
  21.000000 1  Statistic: D 25 R 0 XD 0 XR 0 E 0 O 0 B 0.62%
  21.000254 1  0               Tx   d 8 00 00 00 00 00 00 00 00  Length = 248000 BitCount = 127 ID = 0
  21.000500 1  1               Tx   d 8 00 B3 0E 00 00 00 00 00  Length = 240000 BitCount = 123 ID = 1
  21.000754 1  2               Tx   d 8 00 00 00 00 00 00 00 00  Length = 248000 BitCount = 127 ID = 2
  21.001008 1  3               Tx   d 8 00 00 00 00 00 00 00 00  Length = 248000 BitCount = 127 ID = 3
  21.050244 1  5               Tx   d 8 75 00 06 00 00 00 00 00  Length = 238000 BitCount = 122 ID = 5
  21.100254 1  0               Tx   d 8 00 00 00 00 00 00 00 00  Length = 248000 BitCount = 127 ID = 0
  21.200254 1  0               Tx   d 8 00 00 00 00 00 00 00 00  Length = 248000 BitCount = 127 ID = 0
  21.200508 1  3               Tx   d 8 00 00 00 00 00 00 00 00  Length = 248000 BitCount = 127 ID = 3
  21.250244 1  5               Tx   d 8 7B 00 06 00 00 00 00 00  Length = 238000 BitCount = 122 ID = 5
  21.300254 1  0               Tx   d 8 00 00 00 00 00 00 00 00  Length = 248000 BitCount = 127 ID = 0
  21.300508 1  2               Tx   d 8 00 00 00 00 00 00 00 00  Length = 248000 BitCount = 127 ID = 2
  21.400254 1  0               Tx   d 8 00 00 00 00 00 00 00 00  Length = 248000 BitCount = 127 ID = 0
  21.400508 1  3               Tx   d 8 00 00 00 00 00 00 00 00  Length = 248000 BitCount = 127 ID = 3
  21.450246 1  5               Tx   d 8 81 00 06 00 00 00 00 00  Length = 240000 BitCount = 123 ID = 5
  21.500254 1  0               Tx   d 8 00 00 00 00 00 00 00 00  Length = 248000 BitCount = 127 ID = 0
  21.500502 1  1               Tx   d 8 00 BF 0E 00 00 00 00 00  Length = 242000 BitCount = 124 ID = 1
  21.600254 1  0               Tx   d 8 00 00 00 00 00 00 00 00  Length = 248000 BitCount = 127 ID = 0
  21.600508 1  2               Tx   d 8 00 00 00 00 00 00 00 00  Length = 248000 BitCount = 127 ID = 2
  21.600762 1  3               Tx   d 8 00 00 00 00 00 00 00 00  Length = 248000 BitCount = 127 ID = 3
  21.650244 1  5               Tx   d 8 87 00 06 00 00 00 00 00  Length = 238000 BitCount = 122 ID = 5
  21.700254 1  0               Tx   d 8 00 00 00 00 00 00 00 00  Length = 248000 BitCount = 127 ID = 0
  21.800254 1  0               Tx   d 8 00 00 00 00 00 00 00 00  Length = 248000 BitCount = 127 ID = 0
  21.800508 1  3               Tx   d 8 00 00 00 00 00 00 00 00  Length = 248000 BitCount = 127 ID = 3
  21.850248 1  5               Tx   d 8 8D 00 06 00 00 00 00 00  Length = 242000 BitCount = 124 ID = 5
  21.900254 1  0               Tx   d 8 00 00 00 00 00 00 00 00  Length = 248000 BitCount = 127 ID = 0
  21.900508 1  2               Tx   d 8 00 00 00 00 00 00 00 00  Length = 248000 BitCount = 127 ID = 2
  22.000000 1  Statistic: D 26 R 0 XD 0 XR 0 E 0 O 0 B 0.64%
  22.000254 1  0               Tx   d 8 00 00 00 00 00 00 00 00  Length = 248000 BitCount = 127 ID = 0
  22.000502 1  1               Tx   d 8 00 D1 0E 00 00 00 00 00  Length = 242000 BitCount = 124 ID = 1
  22.000756 1  3               Tx   d 8 00 00 00 00 00 00 00 00  Length = 248000 BitCount = 127 ID = 3
  22.050244 1  5               Tx   d 8 93 00 06 00 00 00 00 00  Length = 238000 BitCount = 122 ID = 5
  22.100254 1  0               Tx   d 8 00 00 00 00 00 00 00 00  Length = 248000 BitCount = 127 ID = 0
  22.200254 1  0               Tx   d 8 00 00 00 00 00 00 00 00  Length = 248000 BitCount = 127 ID = 0
  22.200508 1  2               Tx   d 8 00 00 00 00 00 00 00 00  Length = 248000 BitCount = 127 ID = 2
  22.200762 1  3               Tx   d 8 00 00 00 00 00 00 00 00  Length = 248000 BitCount = 127 ID = 3
  22.250244 1  5               Tx   d 8 96 00 06 00 00 00 00 00  Length = 238000 BitCount = 122 ID = 5
  22.300254 1  0               Tx   d 8 00 00 00 00 00 00 00 00  Length = 248000 BitCount = 127 ID = 0
  22.400254 1  0               Tx   d 8 00 00 00 00 00 00 00 00  Length = 248000 BitCount = 127 ID = 0
  22.400508 1  3               Tx   d 8 00 00 00 00 00 00 00 00  Length = 248000 BitCount = 127 ID = 3
  22.450244 1  5               Tx   d 8 96 00 06 00 00 00 00 00  Length = 238000 BitCount = 122 ID = 5
  22.500254 1  0               Tx   d 8 00 00 00 00 00 00 00 00  Length = 248000 BitCount = 127 ID = 0
  22.500502 1  1               Tx   d 8 00 DA 0E 00 00 00 00 00  Length = 242000 BitCount = 124 ID = 1
  22.500756 1  2               Tx   d 8 00 00 00 00 00 00 00 00  Length = 248000 BitCount = 127 ID = 2
  22.600254 1  0               Tx   d 8 00 00 00 00 00 00 00 00  Length = 248000 BitCount = 127 ID = 0
  22.600508 1  3               Tx   d 8 00 00 00 00 00 00 00 00  Length = 248000 BitCount = 127 ID = 3
  22.650244 1  5               Tx   d 8 96 00 06 00 00 00 00 00  Length = 238000 BitCount = 122 ID = 5
  22.700254 1  0               Tx   d 8 00 00 00 00 00 00 00 00  Length = 248000 BitCount = 127 ID = 0
  22.800254 1  0               Tx   d 8 00 00 00 00 00 00 00 00  Length = 248000 BitCount = 127 ID = 0
  22.800508 1  2               Tx   d 8 00 00 00 00 00 00 00 00  Length = 248000 BitCount = 127 ID = 2
  22.800762 1  3               Tx   d 8 00 00 00 00 00 00 00 00  Length = 248000 BitCount = 127 ID = 3
  22.850244 1  5               Tx   d 8 96 00 06 00 00 00 00 00  Length = 238000 BitCount = 122 ID = 5
  22.900254 1  0               Tx   d 8 00 00 00 00 00 00 00 00  Length = 248000 BitCount = 127 ID = 0
  23.000000 1  Statistic: D 25 R 0 XD 0 XR 0 E 0 O 0 B 0.62%
  23.000254 1  0               Tx   d 8 00 00 00 00 00 00 00 00  Length = 248000 BitCount = 127 ID = 0
  23.000502 1  1               Tx   d 8 00 DA 0E 00 00 00 00 00  Length = 242000 BitCount = 124 ID = 1
  23.000756 1  3               Tx   d 8 00 00 00 00 00 00 00 00  Length = 248000 BitCount = 127 ID = 3
  23.050244 1  5               Tx   d 8 96 00 06 00 00 00 00 00  Length = 238000 BitCount = 122 ID = 5
  23.100254 1  0               Tx   d 8 00 00 00 00 00 00 00 00  Length = 248000 BitCount = 127 ID = 0
  23.100508 1  2               Tx   d 8 00 00 00 00 00 00 00 00  Length = 248000 BitCount = 127 ID = 2
  23.200254 1  0               Tx   d 8 00 00 00 00 00 00 00 00  Length = 248000 BitCount = 127 ID = 0
  23.200508 1  3               Tx   d 8 00 00 00 00 00 00 00 00  Length = 248000 BitCount = 127 ID = 3
  23.250244 1  5               Tx   d 8 96 00 06 00 00 00 00 00  Length = 238000 BitCount = 122 ID = 5
  23.300254 1  0               Tx   d 8 00 00 00 00 00 00 00 00  Length = 248000 BitCount = 127 ID = 0
  23.400254 1  0               Tx   d 8 00 00 00 00 00 00 00 00  Length = 248000 BitCount = 127 ID = 0
  23.400508 1  2               Tx   d 8 00 00 00 00 00 00 00 00  Length = 248000 BitCount = 127 ID = 2
  23.400762 1  3               Tx   d 8 00 00 00 00 00 00 00 00  Length = 248000 BitCount = 127 ID = 3
  23.450244 1  5               Tx   d 8 96 00 06 00 00 00 00 00  Length = 238000 BitCount = 122 ID = 5
  23.500254 1  0               Tx   d 8 00 00 00 00 00 00 00 00  Length = 248000 BitCount = 127 ID = 0
  23.500502 1  1               Tx   d 8 00 DA 0E 00 00 00 00 00  Length = 242000 BitCount = 124 ID = 1
  23.600254 1  0               Tx   d 8 00 00 00 00 00 00 00 00  Length = 248000 BitCount = 127 ID = 0
  23.600508 1  3               Tx   d 8 00 00 00 00 00 00 00 00  Length = 248000 BitCount = 127 ID = 3
  23.650244 1  5               Tx   d 8 96 00 06 00 00 00 00 00  Length = 238000 BitCount = 122 ID = 5
  23.700254 1  0               Tx   d 8 00 00 00 00 00 00 00 00  Length = 248000 BitCount = 127 ID = 0
  23.700508 1  2               Tx   d 8 00 00 00 00 00 00 00 00  Length = 248000 BitCount = 127 ID = 2
  23.800254 1  0               Tx   d 8 00 00 00 00 00 00 00 00  Length = 248000 BitCount = 127 ID = 0
  23.800508 1  3               Tx   d 8 00 00 00 00 00 00 00 00  Length = 248000 BitCount = 127 ID = 3
  23.850244 1  5               Tx   d 8 96 00 06 00 00 00 00 00  Length = 238000 BitCount = 122 ID = 5
  23.900254 1  0               Tx   d 8 00 00 00 00 00 00 00 00  Length = 248000 BitCount = 127 ID = 0
  24.000000 1  Statistic: D 25 R 0 XD 0 XR 0 E 0 O 0 B 0.62%
  24.000254 1  0               Tx   d 8 00 00 00 00 00 00 00 00  Length = 248000 BitCount = 127 ID = 0
  24.000502 1  1               Tx   d 8 00 DA 0E 00 00 00 00 00  Length = 242000 BitCount = 124 ID = 1
  24.000756 1  2               Tx   d 8 00 00 00 00 00 00 00 00  Length = 248000 BitCount = 127 ID = 2
  24.001010 1  3               Tx   d 8 00 00 00 00 00 00 00 00  Length = 248000 BitCount = 127 ID = 3
  24.050244 1  5               Tx   d 8 96 00 06 00 00 00 00 00  Length = 238000 BitCount = 122 ID = 5
  24.100254 1  0               Tx   d 8 00 00 00 00 00 00 00 00  Length = 248000 BitCount = 127 ID = 0
  24.200254 1  0               Tx   d 8 00 00 00 00 00 00 00 00  Length = 248000 BitCount = 127 ID = 0
  24.200508 1  3               Tx   d 8 00 00 00 00 00 00 00 00  Length = 248000 BitCount = 127 ID = 3
  24.250244 1  5               Tx   d 8 96 00 06 00 00 00 00 00  Length = 238000 BitCount = 122 ID = 5
  24.300254 1  0               Tx   d 8 00 00 00 00 00 00 00 00  Length = 248000 BitCount = 127 ID = 0
  24.300508 1  2               Tx   d 8 00 00 00 00 00 00 00 00  Length = 248000 BitCount = 127 ID = 2
  24.400254 1  0               Tx   d 8 00 00 00 00 00 00 00 00  Length = 248000 BitCount = 127 ID = 0
  24.400508 1  3               Tx   d 8 00 00 00 00 00 00 00 00  Length = 248000 BitCount = 127 ID = 3
  24.450244 1  5               Tx   d 8 96 00 06 00 00 00 00 00  Length = 238000 BitCount = 122 ID = 5
  24.500254 1  0               Tx   d 8 00 00 00 00 00 00 00 00  Length = 248000 BitCount = 127 ID = 0
  24.500502 1  1               Tx   d 8 00 DA 0E 00 00 00 00 00  Length = 242000 BitCount = 124 ID = 1
  24.600254 1  0               Tx   d 8 00 00 00 00 00 00 00 00  Length = 248000 BitCount = 127 ID = 0
  24.600508 1  2               Tx   d 8 00 00 00 00 00 00 00 00  Length = 248000 BitCount = 127 ID = 2
  24.600762 1  3               Tx   d 8 00 00 00 00 00 00 00 00  Length = 248000 BitCount = 127 ID = 3
  24.650244 1  5               Tx   d 8 96 00 06 00 00 00 00 00  Length = 238000 BitCount = 122 ID = 5
  24.700254 1  0               Tx   d 8 00 00 00 00 00 00 00 00  Length = 248000 BitCount = 127 ID = 0
  24.800254 1  0               Tx   d 8 00 00 00 00 00 00 00 00  Length = 248000 BitCount = 127 ID = 0
  24.800508 1  3               Tx   d 8 00 00 00 00 00 00 00 00  Length = 248000 BitCount = 127 ID = 3
  24.850244 1  5               Tx   d 8 96 00 06 00 00 00 00 00  Length = 238000 BitCount = 122 ID = 5
  24.900254 1  0               Tx   d 8 00 00 00 00 00 00 00 00  Length = 248000 BitCount = 127 ID = 0
  24.900508 1  2               Tx   d 8 00 00 00 00 00 00 00 00  Length = 248000 BitCount = 127 ID = 2
  25.000000 1  Statistic: D 26 R 0 XD 0 XR 0 E 0 O 0 B 0.64%
  25.000254 1  0               Tx   d 8 00 00 00 00 00 00 00 00  Length = 248000 BitCount = 127 ID = 0
  25.000502 1  1               Tx   d 8 00 DA 0E 00 00 00 00 00  Length = 242000 BitCount = 124 ID = 1
  25.000756 1  3               Tx   d 8 00 00 00 00 00 00 00 00  Length = 248000 BitCount = 127 ID = 3
  25.050244 1  5               Tx   d 8 96 00 06 00 00 00 00 00  Length = 238000 BitCount = 122 ID = 5
  25.100254 1  0               Tx   d 8 00 00 00 00 00 00 00 00  Length = 248000 BitCount = 127 ID = 0
  25.200254 1  0               Tx   d 8 00 00 00 00 00 00 00 00  Length = 248000 BitCount = 127 ID = 0
  25.200508 1  2               Tx   d 8 00 00 00 00 00 00 00 00  Length = 248000 BitCount = 127 ID = 2
  25.200762 1  3               Tx   d 8 00 00 00 00 00 00 00 00  Length = 248000 BitCount = 127 ID = 3
  25.250244 1  5               Tx   d 8 96 00 06 00 00 00 00 00  Length = 238000 BitCount = 122 ID = 5
  25.300254 1  0               Tx   d 8 00 00 00 00 00 00 00 00  Length = 248000 BitCount = 127 ID = 0
  25.400254 1  0               Tx   d 8 00 00 00 00 00 00 00 00  Length = 248000 BitCount = 127 ID = 0
  25.400508 1  3               Tx   d 8 00 00 00 00 00 00 00 00  Length = 248000 BitCount = 127 ID = 3
  25.450244 1  5               Tx   d 8 96 00 06 00 00 00 00 00  Length = 238000 BitCount = 122 ID = 5
  25.500254 1  0               Tx   d 8 00 00 00 00 00 00 00 00  Length = 248000 BitCount = 127 ID = 0
  25.500502 1  1               Tx   d 8 00 DA 0E 00 00 00 00 00  Length = 242000 BitCount = 124 ID = 1
  25.500756 1  2               Tx   d 8 00 00 00 00 00 00 00 00  Length = 248000 BitCount = 127 ID = 2
  25.600254 1  0               Tx   d 8 00 00 00 00 00 00 00 00  Length = 248000 BitCount = 127 ID = 0
  25.600508 1  3               Tx   d 8 00 00 00 00 00 00 00 00  Length = 248000 BitCount = 127 ID = 3
  25.650244 1  5               Tx   d 8 96 00 06 00 00 00 00 00  Length = 238000 BitCount = 122 ID = 5
  25.700254 1  0               Tx   d 8 00 00 00 00 00 00 00 00  Length = 248000 BitCount = 127 ID = 0
  25.800254 1  0               Tx   d 8 00 00 00 00 00 00 00 00  Length = 248000 BitCount = 127 ID = 0
  25.800508 1  2               Tx   d 8 00 00 00 00 00 00 00 00  Length = 248000 BitCount = 127 ID = 2
  25.800762 1  3               Tx   d 8 00 00 00 00 00 00 00 00  Length = 248000 BitCount = 127 ID = 3
  25.850244 1  5               Tx   d 8 96 00 06 00 00 00 00 00  Length = 238000 BitCount = 122 ID = 5
  25.900254 1  0               Tx   d 8 00 00 00 00 00 00 00 00  Length = 248000 BitCount = 127 ID = 0
  26.000000 1  Statistic: D 25 R 0 XD 0 XR 0 E 0 O 0 B 0.62%
  26.000254 1  0               Tx   d 8 00 00 00 00 00 00 00 00  Length = 248000 BitCount = 127 ID = 0
  26.000502 1  1               Tx   d 8 00 DA 0E 00 00 00 00 00  Length = 242000 BitCount = 124 ID = 1
  26.000756 1  3               Tx   d 8 00 00 00 00 00 00 00 00  Length = 248000 BitCount = 127 ID = 3
  26.050244 1  5               Tx   d 8 96 00 06 00 00 00 00 00  Length = 238000 BitCount = 122 ID = 5
  26.100254 1  0               Tx   d 8 00 00 00 00 00 00 00 00  Length = 248000 BitCount = 127 ID = 0
  26.100508 1  2               Tx   d 8 00 00 00 00 00 00 00 00  Length = 248000 BitCount = 127 ID = 2
  26.200254 1  0               Tx   d 8 00 00 00 00 00 00 00 00  Length = 248000 BitCount = 127 ID = 0
  26.200508 1  3               Tx   d 8 00 00 00 00 00 00 00 00  Length = 248000 BitCount = 127 ID = 3
  26.250244 1  5               Tx   d 8 96 00 06 00 00 00 00 00  Length = 238000 BitCount = 122 ID = 5
  26.300254 1  0               Tx   d 8 00 00 00 00 00 00 00 00  Length = 248000 BitCount = 127 ID = 0
  26.400254 1  0               Tx   d 8 00 00 00 00 00 00 00 00  Length = 248000 BitCount = 127 ID = 0
  26.400508 1  2               Tx   d 8 00 00 00 00 00 00 00 00  Length = 248000 BitCount = 127 ID = 2
  26.400762 1  3               Tx   d 8 00 00 00 00 00 00 00 00  Length = 248000 BitCount = 127 ID = 3
  26.450244 1  5               Tx   d 8 96 00 06 00 00 00 00 00  Length = 238000 BitCount = 122 ID = 5
  26.500254 1  0               Tx   d 8 00 00 00 00 00 00 00 00  Length = 248000 BitCount = 127 ID = 0
  26.500502 1  1               Tx   d 8 00 DA 0E 00 00 00 00 00  Length = 242000 BitCount = 124 ID = 1
  26.600254 1  0               Tx   d 8 00 00 00 00 00 00 00 00  Length = 248000 BitCount = 127 ID = 0
  26.600508 1  3               Tx   d 8 00 00 00 00 00 00 00 00  Length = 248000 BitCount = 127 ID = 3
  26.650244 1  5               Tx   d 8 96 00 06 00 00 00 00 00  Length = 238000 BitCount = 122 ID = 5
  26.700254 1  0               Tx   d 8 00 00 00 00 00 00 00 00  Length = 248000 BitCount = 127 ID = 0
  26.700508 1  2               Tx   d 8 00 00 00 00 00 00 00 00  Length = 248000 BitCount = 127 ID = 2
  26.800254 1  0               Tx   d 8 00 00 00 00 00 00 00 00  Length = 248000 BitCount = 127 ID = 0
  26.800508 1  3               Tx   d 8 00 00 00 00 00 00 00 00  Length = 248000 BitCount = 127 ID = 3
  26.850244 1  5               Tx   d 8 96 00 06 00 00 00 00 00  Length = 238000 BitCount = 122 ID = 5
  26.900254 1  0               Tx   d 8 00 00 00 00 00 00 00 00  Length = 248000 BitCount = 127 ID = 0
  27.000000 1  Statistic: D 25 R 0 XD 0 XR 0 E 0 O 0 B 0.62%
  27.000254 1  0               Tx   d 8 00 00 00 00 00 00 00 00  Length = 248000 BitCount = 127 ID = 0
  27.000502 1  1               Tx   d 8 00 DA 0E 00 00 00 00 00  Length = 242000 BitCount = 124 ID = 1
  27.000756 1  2               Tx   d 8 00 00 00 00 00 00 00 00  Length = 248000 BitCount = 127 ID = 2
  27.001010 1  3               Tx   d 8 00 00 00 00 00 00 00 00  Length = 248000 BitCount = 127 ID = 3
  27.050244 1  5               Tx   d 8 96 00 06 00 00 00 00 00  Length = 238000 BitCount = 122 ID = 5
  27.100254 1  0               Tx   d 8 00 00 00 00 00 00 00 00  Length = 248000 BitCount = 127 ID = 0
  27.200254 1  0               Tx   d 8 00 00 00 00 00 00 00 00  Length = 248000 BitCount = 127 ID = 0
  27.200508 1  3               Tx   d 8 00 00 00 00 00 00 00 00  Length = 248000 BitCount = 127 ID = 3
  27.250244 1  5               Tx   d 8 96 00 06 00 00 00 00 00  Length = 238000 BitCount = 122 ID = 5
  27.300254 1  0               Tx   d 8 00 00 00 00 00 00 00 00  Length = 248000 BitCount = 127 ID = 0
  27.300508 1  2               Tx   d 8 00 00 00 00 00 00 00 00  Length = 248000 BitCount = 127 ID = 2
  27.400254 1  0               Tx   d 8 00 00 00 00 00 00 00 00  Length = 248000 BitCount = 127 ID = 0
  27.400508 1  3               Tx   d 8 00 00 00 00 00 00 00 00  Length = 248000 BitCount = 127 ID = 3
  27.450244 1  5               Tx   d 8 96 00 06 00 00 00 00 00  Length = 238000 BitCount = 122 ID = 5
  27.500254 1  0               Tx   d 8 00 00 00 00 00 00 00 00  Length = 248000 BitCount = 127 ID = 0
  27.500502 1  1               Tx   d 8 00 DA 0E 00 00 00 00 00  Length = 242000 BitCount = 124 ID = 1
  27.600254 1  0               Tx   d 8 00 00 00 00 00 00 00 00  Length = 248000 BitCount = 127 ID = 0
  27.600508 1  2               Tx   d 8 00 00 00 00 00 00 00 00  Length = 248000 BitCount = 127 ID = 2
  27.600762 1  3               Tx   d 8 00 00 00 00 00 00 00 00  Length = 248000 BitCount = 127 ID = 3
  27.650244 1  5               Tx   d 8 96 00 06 00 00 00 00 00  Length = 238000 BitCount = 122 ID = 5
  27.700254 1  0               Tx   d 8 00 00 00 00 00 00 00 00  Length = 248000 BitCount = 127 ID = 0
